
**** 01/28/99 13:52:25 *** Win32s PSpice 6.1a (August 1994) *** ID# 12345 ****

 * F:\CONTROL\COMPLMNT\CONVELV.SCH


 ****     CIRCUIT DESCRIPTION


******************************************************************************




* Schematics Version 6.1a - August 1994
* Thu Jan 28 13:52:21 1999


** Analysis setup **
.tran 10us 10ms
.OP 


* From [SCHEMATICS NETLIST] section of msim.ini:
.lib nom.lib

.INC "CONVELV.net"

**** INCLUDING CONVELV.net ****
* Schematics Netlist *



L_L1         $N_0001 $N_0002 200uH 
C_C1         0 Vo 200uF 
R_R1         0 Vo 10 
Q_Q1         $N_0002 $N_0003 0 QbreakN 
V_Vg         $N_0001 0 10V
V_Vu         $N_0003 0  AC 1
+PULSE 1 0 10e-6 0.2e-6 0.2e-6 10e-6 20e-6
D_D         $N_0002 Vo Dbreak 

**** RESUMING CONVELV.CIR ****
.INC "CONVELV.als"

**** INCLUDING CONVELV.als ****
* Schematics Aliases *

.ALIASES
L_L1            L1(1=$N_0001 2=$N_0002 )
C_C1            C1(1=0 2=Vo )
R_R1            R1(1=0 2=Vo )
Q_Q1            Q1(c=$N_0002 b=$N_0003 e=0 )
V_Vg            Vg(+=$N_0001 -=0 )
V_Vu            Vu(+=$N_0003 -=0 )
D_D             D(1=$N_0002 2=Vo )
_    _(Vo=Vo)
.ENDALIASES


**** RESUMING CONVELV.CIR ****


.probe


.END

**** 01/28/99 13:52:25 *** Win32s PSpice 6.1a (August 1994) *** ID# 12345 ****

 * F:\CONTROL\COMPLMNT\CONVELV.SCH


 ****     Diode MODEL PARAMETERS


******************************************************************************




               Dbreak          
          IS   10.000000E-15 


**** 01/28/99 13:52:25 *** Win32s PSpice 6.1a (August 1994) *** ID# 12345 ****

 * F:\CONTROL\COMPLMNT\CONVELV.SCH


 ****     BJT MODEL PARAMETERS


******************************************************************************




               QbreakN         
               NPN             
          IS  100.000000E-18 
          BF  100            
          NF    1            
          BR    1            
          NR    1            


**** 01/28/99 13:52:25 *** Win32s PSpice 6.1a (August 1994) *** ID# 12345 ****

 * F:\CONTROL\COMPLMNT\CONVELV.SCH


 ****     SMALL SIGNAL BIAS SOLUTION       TEMPERATURE =   27.000 DEG C


******************************************************************************



 NODE   VOLTAGE     NODE   VOLTAGE     NODE   VOLTAGE     NODE   VOLTAGE


(   Vo)    9.1685  ($N_0001)   10.0000                   ($N_0002)   10.0000    

($N_0003)    1.0000                   




    VOLTAGE SOURCE CURRENTS
    NAME         CURRENT

    V_Vg        -7.102E+00
    V_Vu        -6.185E-02

    TOTAL POWER DISSIPATION   7.11E+01  WATTS


**** 01/28/99 13:52:25 *** Win32s PSpice 6.1a (August 1994) *** ID# 12345 ****

 * F:\CONTROL\COMPLMNT\CONVELV.SCH


 ****     OPERATING POINT INFORMATION      TEMPERATURE =   27.000 DEG C


******************************************************************************






**** DIODES


NAME         D_D       
MODEL        Dbreak    
ID           9.17E-01 
VD           8.32E-01 
REQ          2.82E-02 
CAP          0.00E+00 


**** BIPOLAR JUNCTION TRANSISTORS


NAME         Q_Q1      
MODEL        QbreakN   
IB           6.19E-02 
IC           6.19E+00 
VBE          1.00E+00 
VBC         -9.00E+00 
VCE          1.00E+01 
BETADC       1.00E+02 
GM           2.39E+02 
RPI          4.18E-01 
RX           0.00E+00 
RO           1.00E+12 
CBE          0.00E+00 
CBC          0.00E+00 
CBX          0.00E+00 
CJS          0.00E+00 
BETAAC       1.00E+02 
FT           3.81E+21 


**** 01/28/99 13:52:25 *** Win32s PSpice 6.1a (August 1994) *** ID# 12345 ****

 * F:\CONTROL\COMPLMNT\CONVELV.SCH


 ****     INITIAL TRANSIENT SOLUTION       TEMPERATURE =   27.000 DEG C


******************************************************************************



 NODE   VOLTAGE     NODE   VOLTAGE     NODE   VOLTAGE     NODE   VOLTAGE


(   Vo)    9.1685  ($N_0001)   10.0000                   ($N_0002)   10.0000    

($N_0003)    1.0000                   




    VOLTAGE SOURCE CURRENTS
    NAME         CURRENT

    V_Vg        -7.102E+00
    V_Vu        -6.185E-02

    TOTAL POWER DISSIPATION   7.11E+01  WATTS



          JOB CONCLUDED

          TOTAL JOB TIME           25.10
